                                Circuito ohm ac
                                Transient Analysis  Mon Jul 17 15:47:27  2023
--------------------------------------------------------------------------------
Index   time            v(n1)           i(v1)           
--------------------------------------------------------------------------------
0	1.000028e-02	3.518577e-03	-3.51858e-06	
1	1.000128e-02	1.608426e-02	-1.60843e-05	
2	1.000228e-02	2.864741e-02	-2.86474e-05	
3	1.000328e-02	4.120603e-02	-4.12060e-05	
4	1.000428e-02	5.375814e-02	-5.37581e-05	
5	1.000528e-02	6.630176e-02	-6.63018e-05	
6	1.000628e-02	7.883492e-02	-7.88349e-05	
7	1.000728e-02	9.135563e-02	-9.13556e-05	
8	1.000828e-02	1.038619e-01	-1.03862e-04	
9	1.000928e-02	1.163518e-01	-1.16352e-04	
10	1.001028e-02	1.288233e-01	-1.28823e-04	
11	1.001128e-02	1.412745e-01	-1.41274e-04	
12	1.001228e-02	1.537033e-01	-1.53703e-04	
13	1.001328e-02	1.661079e-01	-1.66108e-04	
14	1.001428e-02	1.784862e-01	-1.78486e-04	
15	1.001528e-02	1.908364e-01	-1.90836e-04	
16	1.001628e-02	2.031564e-01	-2.03156e-04	
17	1.001728e-02	2.154444e-01	-2.15444e-04	
18	1.001828e-02	2.276983e-01	-2.27698e-04	
19	1.001928e-02	2.399163e-01	-2.39916e-04	
20	1.002028e-02	2.520964e-01	-2.52096e-04	
21	1.002128e-02	2.642367e-01	-2.64237e-04	
22	1.002228e-02	2.763352e-01	-2.76335e-04	
23	1.002328e-02	2.883901e-01	-2.88390e-04	
24	1.002428e-02	3.003995e-01	-3.00400e-04	
25	1.002528e-02	3.123614e-01	-3.12361e-04	
26	1.002628e-02	3.242741e-01	-3.24274e-04	
27	1.002728e-02	3.361355e-01	-3.36135e-04	
28	1.002828e-02	3.479438e-01	-3.47944e-04	
29	1.002928e-02	3.596972e-01	-3.59697e-04	
30	1.003028e-02	3.713938e-01	-3.71394e-04	
31	1.003128e-02	3.830317e-01	-3.83032e-04	
32	1.003228e-02	3.946092e-01	-3.94609e-04	
33	1.003328e-02	4.061243e-01	-4.06124e-04	
34	1.003428e-02	4.175753e-01	-4.17575e-04	
35	1.003528e-02	4.289604e-01	-4.28960e-04	
36	1.003628e-02	4.402777e-01	-4.40278e-04	
37	1.003728e-02	4.515255e-01	-4.51525e-04	
38	1.003828e-02	4.627020e-01	-4.62702e-04	
39	1.003928e-02	4.738054e-01	-4.73805e-04	
40	1.004028e-02	4.848340e-01	-4.84834e-04	
41	1.004128e-02	4.957861e-01	-4.95786e-04	
42	1.004228e-02	5.066599e-01	-5.06660e-04	
43	1.004328e-02	5.174536e-01	-5.17454e-04	
44	1.004428e-02	5.281657e-01	-5.28166e-04	
45	1.004528e-02	5.387943e-01	-5.38794e-04	
46	1.004628e-02	5.493379e-01	-5.49338e-04	
47	1.004728e-02	5.597947e-01	-5.59795e-04	
48	1.004828e-02	5.701631e-01	-5.70163e-04	
49	1.004928e-02	5.804415e-01	-5.80441e-04	
50	1.005028e-02	5.906282e-01	-5.90628e-04	
51	1.005128e-02	6.007217e-01	-6.00722e-04	
52	1.005228e-02	6.107203e-01	-6.10720e-04	
53	1.005328e-02	6.206224e-01	-6.20622e-04	
54	1.005428e-02	6.304266e-01	-6.30427e-04	

Index   time            v(n1)           i(v1)           
--------------------------------------------------------------------------------
55	1.005528e-02	6.401312e-01	-6.40131e-04	
56	1.005628e-02	6.497347e-01	-6.49735e-04	
57	1.005728e-02	6.592356e-01	-6.59236e-04	
58	1.005828e-02	6.686324e-01	-6.68632e-04	
59	1.005928e-02	6.779236e-01	-6.77924e-04	
60	1.006028e-02	6.871078e-01	-6.87108e-04	
61	1.006128e-02	6.961835e-01	-6.96183e-04	
62	1.006228e-02	7.051492e-01	-7.05149e-04	
63	1.006328e-02	7.140036e-01	-7.14004e-04	
64	1.006428e-02	7.227452e-01	-7.22745e-04	
65	1.006528e-02	7.313727e-01	-7.31373e-04	
66	1.006628e-02	7.398848e-01	-7.39885e-04	
67	1.006728e-02	7.482799e-01	-7.48280e-04	
68	1.006828e-02	7.565570e-01	-7.56557e-04	
69	1.006928e-02	7.647145e-01	-7.64715e-04	
70	1.007028e-02	7.727513e-01	-7.72751e-04	
71	1.007128e-02	7.806661e-01	-7.80666e-04	
72	1.007228e-02	7.884576e-01	-7.88458e-04	
73	1.007328e-02	7.961245e-01	-7.96125e-04	
74	1.007428e-02	8.036658e-01	-8.03666e-04	
75	1.007528e-02	8.110802e-01	-8.11080e-04	
76	1.007628e-02	8.183664e-01	-8.18366e-04	
77	1.007728e-02	8.255235e-01	-8.25523e-04	
78	1.007828e-02	8.325502e-01	-8.32550e-04	
79	1.007928e-02	8.394454e-01	-8.39445e-04	
80	1.008028e-02	8.462080e-01	-8.46208e-04	
81	1.008128e-02	8.528371e-01	-8.52837e-04	
82	1.008228e-02	8.593314e-01	-8.59331e-04	
83	1.008328e-02	8.656901e-01	-8.65690e-04	
84	1.008428e-02	8.719121e-01	-8.71912e-04	
85	1.008528e-02	8.779963e-01	-8.77996e-04	
86	1.008628e-02	8.839420e-01	-8.83942e-04	
87	1.008728e-02	8.897480e-01	-8.89748e-04	
88	1.008828e-02	8.954136e-01	-8.95414e-04	
89	1.008928e-02	9.009377e-01	-9.00938e-04	
90	1.009028e-02	9.063196e-01	-9.06320e-04	
91	1.009128e-02	9.115583e-01	-9.11558e-04	
92	1.009228e-02	9.166532e-01	-9.16653e-04	
93	1.009328e-02	9.216032e-01	-9.21603e-04	
94	1.009428e-02	9.264078e-01	-9.26408e-04	
95	1.009528e-02	9.310660e-01	-9.31066e-04	
96	1.009628e-02	9.355772e-01	-9.35577e-04	
97	1.009728e-02	9.399407e-01	-9.39941e-04	
98	1.009828e-02	9.441557e-01	-9.44156e-04	
99	1.009928e-02	9.482217e-01	-9.48222e-04	
100	1.010028e-02	9.521379e-01	-9.52138e-04	
101	1.010128e-02	9.559038e-01	-9.55904e-04	
102	1.010228e-02	9.595187e-01	-9.59519e-04	
103	1.010328e-02	9.629821e-01	-9.62982e-04	
104	1.010428e-02	9.662935e-01	-9.66293e-04	
105	1.010528e-02	9.694522e-01	-9.69452e-04	
106	1.010628e-02	9.724579e-01	-9.72458e-04	
107	1.010728e-02	9.753100e-01	-9.75310e-04	
108	1.010828e-02	9.780080e-01	-9.78008e-04	
109	1.010928e-02	9.805517e-01	-9.80552e-04	
110	1.011028e-02	9.829405e-01	-9.82940e-04	
111	1.011128e-02	9.851741e-01	-9.85174e-04	
112	1.011228e-02	9.872521e-01	-9.87252e-04	

Index   time            v(n1)           i(v1)           
--------------------------------------------------------------------------------
113	1.011328e-02	9.891742e-01	-9.89174e-04	
114	1.011428e-02	9.909401e-01	-9.90940e-04	
115	1.011528e-02	9.925496e-01	-9.92550e-04	
116	1.011628e-02	9.940023e-01	-9.94002e-04	
117	1.011728e-02	9.952980e-01	-9.95298e-04	
118	1.011828e-02	9.964366e-01	-9.96437e-04	
119	1.011928e-02	9.974178e-01	-9.97418e-04	
120	1.012028e-02	9.982415e-01	-9.98241e-04	
121	1.012128e-02	9.989076e-01	-9.98908e-04	
122	1.012228e-02	9.994159e-01	-9.99416e-04	
123	1.012328e-02	9.997664e-01	-9.99766e-04	
124	1.012428e-02	9.999591e-01	-9.99959e-04	
125	1.012528e-02	9.999938e-01	-9.99994e-04	
126	1.012628e-02	9.998706e-01	-9.99871e-04	
127	1.012728e-02	9.995896e-01	-9.99590e-04	
128	1.012828e-02	9.991507e-01	-9.99151e-04	
129	1.012928e-02	9.985540e-01	-9.98554e-04	
130	1.013028e-02	9.977996e-01	-9.97800e-04	
131	1.013128e-02	9.968877e-01	-9.96888e-04	
132	1.013228e-02	9.958183e-01	-9.95818e-04	
133	1.013328e-02	9.945917e-01	-9.94592e-04	
134	1.013428e-02	9.932081e-01	-9.93208e-04	
135	1.013528e-02	9.916676e-01	-9.91668e-04	
136	1.013628e-02	9.899705e-01	-9.89970e-04	
137	1.013728e-02	9.881170e-01	-9.88117e-04	
138	1.013828e-02	9.861076e-01	-9.86108e-04	
139	1.013928e-02	9.839424e-01	-9.83942e-04	
140	1.014028e-02	9.816219e-01	-9.81622e-04	
141	1.014128e-02	9.791463e-01	-9.79146e-04	
142	1.014228e-02	9.765161e-01	-9.76516e-04	
143	1.014328e-02	9.737317e-01	-9.73732e-04	
144	1.014428e-02	9.707936e-01	-9.70794e-04	
145	1.014528e-02	9.677021e-01	-9.67702e-04	
146	1.014628e-02	9.644579e-01	-9.64458e-04	
147	1.014728e-02	9.610613e-01	-9.61061e-04	
148	1.014828e-02	9.575130e-01	-9.57513e-04	
149	1.014928e-02	9.538135e-01	-9.53813e-04	
150	1.015028e-02	9.499633e-01	-9.49963e-04	
151	1.015128e-02	9.459632e-01	-9.45963e-04	
152	1.015228e-02	9.418136e-01	-9.41814e-04	
153	1.015328e-02	9.375154e-01	-9.37515e-04	
154	1.015428e-02	9.330691e-01	-9.33069e-04	
155	1.015528e-02	9.284755e-01	-9.28475e-04	
156	1.015628e-02	9.237352e-01	-9.23735e-04	
157	1.015728e-02	9.188491e-01	-9.18849e-04	
158	1.015828e-02	9.138178e-01	-9.13818e-04	
159	1.015928e-02	9.086423e-01	-9.08642e-04	
160	1.016028e-02	9.033233e-01	-9.03323e-04	
161	1.016128e-02	8.978617e-01	-8.97862e-04	
162	1.016228e-02	8.922582e-01	-8.92258e-04	
163	1.016328e-02	8.865139e-01	-8.86514e-04	
164	1.016428e-02	8.806296e-01	-8.80630e-04	
165	1.016528e-02	8.746062e-01	-8.74606e-04	
166	1.016628e-02	8.684447e-01	-8.68445e-04	
167	1.016728e-02	8.621460e-01	-8.62146e-04	
168	1.016828e-02	8.557113e-01	-8.55711e-04	
169	1.016928e-02	8.491413e-01	-8.49141e-04	
170	1.017028e-02	8.424374e-01	-8.42437e-04	

Index   time            v(n1)           i(v1)           
--------------------------------------------------------------------------------
171	1.017128e-02	8.356003e-01	-8.35600e-04	
172	1.017228e-02	8.286313e-01	-8.28631e-04	
173	1.017328e-02	8.215315e-01	-8.21532e-04	
174	1.017428e-02	8.143020e-01	-8.14302e-04	
175	1.017528e-02	8.069438e-01	-8.06944e-04	
176	1.017628e-02	7.994582e-01	-7.99458e-04	
177	1.017728e-02	7.918464e-01	-7.91846e-04	
178	1.017828e-02	7.841096e-01	-7.84110e-04	
179	1.017928e-02	7.762489e-01	-7.76249e-04	
180	1.018028e-02	7.682656e-01	-7.68266e-04	
181	1.018128e-02	7.601611e-01	-7.60161e-04	
182	1.018228e-02	7.519365e-01	-7.51936e-04	
183	1.018328e-02	7.435931e-01	-7.43593e-04	
184	1.018428e-02	7.351323e-01	-7.35132e-04	
185	1.018528e-02	7.265555e-01	-7.26555e-04	
186	1.018628e-02	7.178639e-01	-7.17864e-04	
187	1.018728e-02	7.090589e-01	-7.09059e-04	
188	1.018828e-02	7.001420e-01	-7.00142e-04	
189	1.018928e-02	6.911145e-01	-6.91115e-04	
190	1.019028e-02	6.819779e-01	-6.81978e-04	
191	1.019128e-02	6.727336e-01	-6.72734e-04	
192	1.019228e-02	6.633831e-01	-6.63383e-04	
193	1.019328e-02	6.539278e-01	-6.53928e-04	
194	1.019428e-02	6.443692e-01	-6.44369e-04	
195	1.019528e-02	6.347089e-01	-6.34709e-04	
196	1.019628e-02	6.249484e-01	-6.24948e-04	
197	1.019728e-02	6.150892e-01	-6.15089e-04	
198	1.019828e-02	6.051328e-01	-6.05133e-04	
199	1.019928e-02	5.950809e-01	-5.95081e-04	
200	1.020028e-02	5.849350e-01	-5.84935e-04	
201	1.020128e-02	5.746968e-01	-5.74697e-04	
202	1.020228e-02	5.643678e-01	-5.64368e-04	
203	1.020328e-02	5.539497e-01	-5.53950e-04	
204	1.020428e-02	5.434441e-01	-5.43444e-04	
205	1.020528e-02	5.328526e-01	-5.32853e-04	
206	1.020628e-02	5.221771e-01	-5.22177e-04	
207	1.020728e-02	5.114191e-01	-5.11419e-04	
208	1.020828e-02	5.005803e-01	-5.00580e-04	
209	1.020928e-02	4.896625e-01	-4.89662e-04	
210	1.021028e-02	4.786673e-01	-4.78667e-04	
211	1.021128e-02	4.675966e-01	-4.67597e-04	
212	1.021228e-02	4.564520e-01	-4.56452e-04	
213	1.021328e-02	4.452354e-01	-4.45235e-04	
214	1.021428e-02	4.339484e-01	-4.33948e-04	
215	1.021528e-02	4.225930e-01	-4.22593e-04	
216	1.021628e-02	4.111707e-01	-4.11171e-04	
217	1.021728e-02	3.996836e-01	-3.99684e-04	
218	1.021828e-02	3.881333e-01	-3.88133e-04	
219	1.021928e-02	3.765218e-01	-3.76522e-04	
220	1.022028e-02	3.648508e-01	-3.64851e-04	
221	1.022128e-02	3.531222e-01	-3.53122e-04	
222	1.022228e-02	3.413378e-01	-3.41338e-04	
223	1.022328e-02	3.294995e-01	-3.29499e-04	
224	1.022428e-02	3.176092e-01	-3.17609e-04	
225	1.022528e-02	3.056687e-01	-3.05669e-04	
226	1.022628e-02	2.936800e-01	-2.93680e-04	
227	1.022728e-02	2.816449e-01	-2.81645e-04	
228	1.022828e-02	2.695653e-01	-2.69565e-04	

Index   time            v(n1)           i(v1)           
--------------------------------------------------------------------------------
229	1.022928e-02	2.574431e-01	-2.57443e-04	
230	1.023028e-02	2.452803e-01	-2.45280e-04	
231	1.023128e-02	2.330788e-01	-2.33079e-04	
232	1.023228e-02	2.208404e-01	-2.20840e-04	
233	1.023328e-02	2.085672e-01	-2.08567e-04	
234	1.023428e-02	1.962610e-01	-1.96261e-04	
235	1.023528e-02	1.839239e-01	-1.83924e-04	
236	1.023628e-02	1.715577e-01	-1.71558e-04	
237	1.023728e-02	1.591644e-01	-1.59164e-04	
238	1.023828e-02	1.467460e-01	-1.46746e-04	
239	1.023928e-02	1.343044e-01	-1.34304e-04	
240	1.024028e-02	1.218416e-01	-1.21842e-04	
241	1.024128e-02	1.093596e-01	-1.09360e-04	
242	1.024228e-02	9.686028e-02	-9.68603e-05	
243	1.024328e-02	8.434568e-02	-8.43457e-05	
244	1.024428e-02	7.181776e-02	-7.18178e-05	
245	1.024528e-02	5.927850e-02	-5.92785e-05	
246	1.024628e-02	4.672987e-02	-4.67299e-05	
247	1.024728e-02	3.417387e-02	-3.41739e-05	
248	1.024828e-02	2.161247e-02	-2.16125e-05	
249	1.024928e-02	9.047663e-03	-9.04766e-06	
250	1.025028e-02	-3.51858e-03	3.518576e-06	
251	1.025128e-02	-1.60843e-02	1.608426e-05	
252	1.025228e-02	-2.86474e-02	2.864741e-05	
253	1.025328e-02	-4.12060e-02	4.120603e-05	
254	1.025428e-02	-5.37581e-02	5.375814e-05	
255	1.025528e-02	-6.63018e-02	6.630176e-05	
256	1.025628e-02	-7.88349e-02	7.883492e-05	
257	1.025728e-02	-9.13556e-02	9.135563e-05	
258	1.025828e-02	-1.03862e-01	1.038619e-04	
259	1.025928e-02	-1.16352e-01	1.163518e-04	
260	1.026028e-02	-1.28823e-01	1.288233e-04	
261	1.026128e-02	-1.41274e-01	1.412745e-04	
262	1.026228e-02	-1.53703e-01	1.537033e-04	
263	1.026328e-02	-1.66108e-01	1.661079e-04	
264	1.026428e-02	-1.78486e-01	1.784862e-04	
265	1.026528e-02	-1.90836e-01	1.908364e-04	
266	1.026628e-02	-2.03156e-01	2.031564e-04	
267	1.026728e-02	-2.15444e-01	2.154444e-04	
268	1.026828e-02	-2.27698e-01	2.276983e-04	
269	1.026928e-02	-2.39916e-01	2.399163e-04	
270	1.027028e-02	-2.52096e-01	2.520964e-04	
271	1.027128e-02	-2.64237e-01	2.642367e-04	
272	1.027228e-02	-2.76335e-01	2.763352e-04	
273	1.027328e-02	-2.88390e-01	2.883901e-04	
274	1.027428e-02	-3.00400e-01	3.003995e-04	
275	1.027528e-02	-3.12361e-01	3.123614e-04	
276	1.027628e-02	-3.24274e-01	3.242741e-04	
277	1.027728e-02	-3.36135e-01	3.361355e-04	
278	1.027828e-02	-3.47944e-01	3.479438e-04	
279	1.027928e-02	-3.59697e-01	3.596972e-04	
280	1.028028e-02	-3.71394e-01	3.713938e-04	
281	1.028128e-02	-3.83032e-01	3.830317e-04	
282	1.028228e-02	-3.94609e-01	3.946092e-04	
283	1.028328e-02	-4.06124e-01	4.061243e-04	
284	1.028428e-02	-4.17575e-01	4.175753e-04	
285	1.028528e-02	-4.28960e-01	4.289604e-04	
286	1.028628e-02	-4.40278e-01	4.402777e-04	

Index   time            v(n1)           i(v1)           
--------------------------------------------------------------------------------
287	1.028728e-02	-4.51525e-01	4.515255e-04	
288	1.028828e-02	-4.62702e-01	4.627020e-04	
289	1.028928e-02	-4.73805e-01	4.738054e-04	
290	1.029028e-02	-4.84834e-01	4.848340e-04	
291	1.029128e-02	-4.95786e-01	4.957861e-04	
292	1.029228e-02	-5.06660e-01	5.066599e-04	
293	1.029328e-02	-5.17454e-01	5.174536e-04	
294	1.029428e-02	-5.28166e-01	5.281657e-04	
295	1.029528e-02	-5.38794e-01	5.387943e-04	
296	1.029628e-02	-5.49338e-01	5.493379e-04	
297	1.029728e-02	-5.59795e-01	5.597947e-04	
298	1.029828e-02	-5.70163e-01	5.701631e-04	
299	1.029928e-02	-5.80441e-01	5.804415e-04	
300	1.030028e-02	-5.90628e-01	5.906282e-04	
301	1.030128e-02	-6.00722e-01	6.007217e-04	
302	1.030228e-02	-6.10720e-01	6.107203e-04	
303	1.030328e-02	-6.20622e-01	6.206224e-04	
304	1.030428e-02	-6.30427e-01	6.304266e-04	
305	1.030528e-02	-6.40131e-01	6.401312e-04	
306	1.030628e-02	-6.49735e-01	6.497347e-04	
307	1.030728e-02	-6.59236e-01	6.592356e-04	
308	1.030828e-02	-6.68632e-01	6.686324e-04	
309	1.030928e-02	-6.77924e-01	6.779236e-04	
310	1.031028e-02	-6.87108e-01	6.871078e-04	
311	1.031128e-02	-6.96183e-01	6.961835e-04	
312	1.031228e-02	-7.05149e-01	7.051492e-04	
313	1.031328e-02	-7.14004e-01	7.140036e-04	
314	1.031428e-02	-7.22745e-01	7.227452e-04	
315	1.031528e-02	-7.31373e-01	7.313727e-04	
316	1.031628e-02	-7.39885e-01	7.398848e-04	
317	1.031728e-02	-7.48280e-01	7.482799e-04	
318	1.031828e-02	-7.56557e-01	7.565570e-04	
319	1.031928e-02	-7.64715e-01	7.647145e-04	
320	1.032028e-02	-7.72751e-01	7.727513e-04	
321	1.032128e-02	-7.80666e-01	7.806661e-04	
322	1.032228e-02	-7.88458e-01	7.884576e-04	
323	1.032328e-02	-7.96125e-01	7.961245e-04	
324	1.032428e-02	-8.03666e-01	8.036658e-04	
325	1.032528e-02	-8.11080e-01	8.110802e-04	
326	1.032628e-02	-8.18366e-01	8.183664e-04	
327	1.032728e-02	-8.25523e-01	8.255235e-04	
328	1.032828e-02	-8.32550e-01	8.325502e-04	
329	1.032928e-02	-8.39445e-01	8.394454e-04	
330	1.033028e-02	-8.46208e-01	8.462080e-04	
331	1.033128e-02	-8.52837e-01	8.528371e-04	
332	1.033228e-02	-8.59331e-01	8.593314e-04	
333	1.033328e-02	-8.65690e-01	8.656901e-04	
334	1.033428e-02	-8.71912e-01	8.719121e-04	
335	1.033528e-02	-8.77996e-01	8.779963e-04	
336	1.033628e-02	-8.83942e-01	8.839420e-04	
337	1.033728e-02	-8.89748e-01	8.897480e-04	
338	1.033828e-02	-8.95414e-01	8.954136e-04	
339	1.033928e-02	-9.00938e-01	9.009377e-04	
340	1.034028e-02	-9.06320e-01	9.063196e-04	
341	1.034128e-02	-9.11558e-01	9.115583e-04	
342	1.034228e-02	-9.16653e-01	9.166532e-04	
343	1.034328e-02	-9.21603e-01	9.216032e-04	
344	1.034428e-02	-9.26408e-01	9.264078e-04	

Index   time            v(n1)           i(v1)           
--------------------------------------------------------------------------------
345	1.034528e-02	-9.31066e-01	9.310660e-04	
346	1.034628e-02	-9.35577e-01	9.355772e-04	
347	1.034728e-02	-9.39941e-01	9.399407e-04	
348	1.034828e-02	-9.44156e-01	9.441557e-04	
349	1.034928e-02	-9.48222e-01	9.482217e-04	
350	1.035028e-02	-9.52138e-01	9.521379e-04	
351	1.035128e-02	-9.55904e-01	9.559038e-04	
352	1.035228e-02	-9.59519e-01	9.595187e-04	
353	1.035328e-02	-9.62982e-01	9.629821e-04	
354	1.035428e-02	-9.66293e-01	9.662935e-04	
355	1.035528e-02	-9.69452e-01	9.694522e-04	
356	1.035628e-02	-9.72458e-01	9.724579e-04	
357	1.035728e-02	-9.75310e-01	9.753100e-04	
358	1.035828e-02	-9.78008e-01	9.780080e-04	
359	1.035928e-02	-9.80552e-01	9.805517e-04	
360	1.036028e-02	-9.82940e-01	9.829405e-04	
361	1.036128e-02	-9.85174e-01	9.851741e-04	
362	1.036228e-02	-9.87252e-01	9.872521e-04	
363	1.036328e-02	-9.89174e-01	9.891742e-04	
364	1.036428e-02	-9.90940e-01	9.909401e-04	
365	1.036528e-02	-9.92550e-01	9.925496e-04	
366	1.036628e-02	-9.94002e-01	9.940023e-04	
367	1.036728e-02	-9.95298e-01	9.952980e-04	
368	1.036828e-02	-9.96437e-01	9.964366e-04	
369	1.036928e-02	-9.97418e-01	9.974178e-04	
370	1.037028e-02	-9.98241e-01	9.982415e-04	
371	1.037128e-02	-9.98908e-01	9.989076e-04	
372	1.037228e-02	-9.99416e-01	9.994159e-04	
373	1.037328e-02	-9.99766e-01	9.997664e-04	
374	1.037428e-02	-9.99959e-01	9.999591e-04	
375	1.037528e-02	-9.99994e-01	9.999938e-04	
376	1.037628e-02	-9.99871e-01	9.998706e-04	
377	1.037728e-02	-9.99590e-01	9.995896e-04	
378	1.037828e-02	-9.99151e-01	9.991507e-04	
379	1.037928e-02	-9.98554e-01	9.985540e-04	
380	1.038028e-02	-9.97800e-01	9.977996e-04	
381	1.038128e-02	-9.96888e-01	9.968877e-04	
382	1.038228e-02	-9.95818e-01	9.958183e-04	
383	1.038328e-02	-9.94592e-01	9.945917e-04	
384	1.038428e-02	-9.93208e-01	9.932081e-04	
385	1.038528e-02	-9.91668e-01	9.916676e-04	
386	1.038628e-02	-9.89970e-01	9.899705e-04	
387	1.038728e-02	-9.88117e-01	9.881170e-04	
388	1.038828e-02	-9.86108e-01	9.861076e-04	
389	1.038928e-02	-9.83942e-01	9.839424e-04	
390	1.039028e-02	-9.81622e-01	9.816219e-04	
391	1.039128e-02	-9.79146e-01	9.791463e-04	
392	1.039228e-02	-9.76516e-01	9.765161e-04	
393	1.039328e-02	-9.73732e-01	9.737317e-04	
394	1.039428e-02	-9.70794e-01	9.707936e-04	
395	1.039528e-02	-9.67702e-01	9.677021e-04	
396	1.039628e-02	-9.64458e-01	9.644579e-04	
397	1.039728e-02	-9.61061e-01	9.610613e-04	
398	1.039828e-02	-9.57513e-01	9.575130e-04	
399	1.039928e-02	-9.53813e-01	9.538135e-04	
400	1.040028e-02	-9.49963e-01	9.499633e-04	
401	1.040128e-02	-9.45963e-01	9.459632e-04	
402	1.040228e-02	-9.41814e-01	9.418136e-04	

Index   time            v(n1)           i(v1)           
--------------------------------------------------------------------------------
403	1.040328e-02	-9.37515e-01	9.375154e-04	
404	1.040428e-02	-9.33069e-01	9.330691e-04	
405	1.040528e-02	-9.28475e-01	9.284755e-04	
406	1.040628e-02	-9.23735e-01	9.237352e-04	
407	1.040728e-02	-9.18849e-01	9.188491e-04	
408	1.040828e-02	-9.13818e-01	9.138178e-04	
409	1.040928e-02	-9.08642e-01	9.086423e-04	
410	1.041028e-02	-9.03323e-01	9.033233e-04	
411	1.041128e-02	-8.97862e-01	8.978617e-04	
412	1.041228e-02	-8.92258e-01	8.922582e-04	
413	1.041328e-02	-8.86514e-01	8.865139e-04	
414	1.041428e-02	-8.80630e-01	8.806296e-04	
415	1.041528e-02	-8.74606e-01	8.746062e-04	
416	1.041628e-02	-8.68445e-01	8.684447e-04	
417	1.041728e-02	-8.62146e-01	8.621460e-04	
418	1.041828e-02	-8.55711e-01	8.557113e-04	
419	1.041928e-02	-8.49141e-01	8.491413e-04	
420	1.042028e-02	-8.42437e-01	8.424374e-04	
421	1.042128e-02	-8.35600e-01	8.356003e-04	
422	1.042228e-02	-8.28631e-01	8.286313e-04	
423	1.042328e-02	-8.21532e-01	8.215315e-04	
424	1.042428e-02	-8.14302e-01	8.143020e-04	
425	1.042528e-02	-8.06944e-01	8.069438e-04	
